
T22E8 000:555 SEGGER J-Link V4.90 Log File (0002ms, 0296ms total)
T22E8 000:555 DLL Compiled: Jul 28 2014 10:35:20 (0002ms, 0296ms total)
T22E8 000:555 Logging started @ 2017-12-12 18:33 (0002ms, 0296ms total)
T22E8 000:557 JLINK_SetWarnOutHandler(...) (0000ms, 0296ms total)
T22E8 000:557 JLINK_OpenEx(...)
Firmware: J-Link V9 compiled Feb  2 2016 18:43:46
Hardware: V9.40
S/N: 59425868
Feature(s): RDI, GDB, FlashDL, FlashBP, JFlash, RDDI  returns O.K. (0290ms, 0586ms total)
T22E8 000:847 JLINK_SetErrorOutHandler(...) (0000ms, 0586ms total)
T22E8 000:847 JLINK_ExecCommand("ProjectFile = "C:\Users\github\demo\USER\JLinkSettings.ini"", ...)  returns 0x00 (0003ms, 0589ms total)
T22E8 000:855 JLINK_ExecCommand("Device = STM32F103VE", ...)Device "STM32F103VE" selected (512 KB flash, 64 KB RAM).  returns 0x00 (0017ms, 0607ms total)
T22E8 000:874 JLINK_ExecCommand("DisableConnectionTimeout", ...)  returns 0x01 (0000ms, 0608ms total)
T22E8 000:874 JLINK_TIF_Select(JLINKARM_TIF_SWD)  returns 0x00 (0004ms, 0612ms total)
T22E8 000:878 JLINK_SetSpeed(2000) (0000ms, 0612ms total)
T22E8 000:878 JLINK_GetHardwareVersion()  returns 0x16F30 (0000ms, 0612ms total)
T22E8 000:879 JLINK_GetDLLVersion()  returns 49000 (0000ms, 0613ms total)
T22E8 000:879 JLINK_GetFirmwareString(...) (0000ms, 0613ms total)
T22E8 000:891 JLINK_GetDLLVersion()  returns 49000 (0000ms, 0613ms total)
T22E8 000:891 JLINK_GetCompileDateTime() (0000ms, 0613ms total)
T22E8 000:894 JLINK_GetFirmwareString(...) (0000ms, 0613ms total)
T22E8 000:897 JLINK_GetHardwareVersion()  returns 0x16F30 (0002ms, 0615ms total)
T22E8 000:917 JLINK_GetId() >0x108 TIF>Found SWD-DP with ID 0x1BA01477 >0x0D TIF> >0x28 TIF> >0x0D TIF> >0x28 TIF> >0x0D TIF> >0x21 TIF> >0x0D TIF> >0x28 TIF> >0x0D TIF> >0x28 TIF> >0x0D TIF> >0x28 TIF> >0x0D TIF> >0x21 TIF> >0x0D TIF> >0x21 TIF> >0x0D TIF> >0x28 TIF> >0x0D TIF> >0x21 TIF> >0x0D TIF> >0x21 TIF> >0x0D TIF> >0x28 TIF> >0x0D TIF> >0x28 TIF> >0x108 TIF>Found SWD-DP with ID 0x1BA01477 >0x0D TIF> >0x21 TIF> >0x0D TIF> >0x28 TIF> >0x0D TIF> >0x28 TIF> >0x0D TIF> >0x21 TIF> >0x0D TIF> >0x28 TIF>
 >0x0D TIF> >0x21 TIF> >0x0D TIF> >0x21 TIF> >0x0D TIF> >0x21 TIF> >0x0D TIF> >0x21 TIF> >0x0D TIF> >0x28 TIF> >0x0D TIF> >0x28 TIF> >0x0D TIF> >0x21 TIF> >0x0D TIF> >0x28 TIF> >0x0D TIF> >0x28 TIF> >0x0D TIF> >0x28 TIF> >0x0D TIF> >0x21 TIF> >0x0D TIF> >0x21 TIF> >0x0D TIF> >0x28 TIF> >0x0D TIF> >0x21 TIF> >0x0D TIF> >0x21 TIF>Found Cortex-M3 r1p1, Little endian. -- CPU_WriteMem(4 bytes @ 0xE0002000) -- CPU_ReadMem(4 bytes @ 0xE000EDF0) -- CPU_WriteMem(4 bytes @ 0xE000EDF0)
 -- CPU_ReadMem(4 bytes @ 0xE0002000)FPUnit: 6 code (BP) slots and 2 literal slots -- CPU_ReadMem(4 bytes @ 0xE000EDFC) -- CPU_WriteMem(4 bytes @ 0xE000EDFC) -- CPU_ReadMem(4 bytes @ 0xE0001000) -- CPU_WriteMem(4 bytes @ 0xE0001000) -- CPU_ReadMem(4 bytes @ 0xE00FF010)TPIU fitted. -- CPU_ReadMem(4 bytes @ 0xE00FF014)ETM fitted. -- CPU_ReadMem(4 bytes @ 0xE00FF018) >0x0D TIF> >0x21 TIF>  returns 0x1BA01477 (0101ms, 0716ms total)
T22E8 001:018 JLINK_GetDeviceFamily()  returns 3 (0000ms, 0716ms total)
T22E8 001:020 JLINK_ReadMem (0xE00FFFF0, 0x0010 Bytes, ...) -- CPU is running -- CPU_ReadMem(16 bytes @ 0xE00FFFF0) - Data: 0D 00 00 00 10 00 00 00 05 00 00 00 B1 00 00 00  returns 0x00 (0002ms, 0718ms total)
T22E8 001:022 JLINK_ReadMem (0xE00FFFD0, 0x0020 Bytes, ...) -- CPU is running -- CPU_ReadMem(32 bytes @ 0xE00FFFD0) - Data: 00 00 00 00 00 00 00 00 00 00 00 00 00 00 00 00 ...  returns 0x00 (0001ms, 0719ms total)
T22E8 001:023 JLINK_ReadMem (0xE00FF000, 0x0018 Bytes, ...) -- CPU is running -- CPU_ReadMem(24 bytes @ 0xE00FF000) - Data: 03 F0 F0 FF 03 20 F0 FF 03 30 F0 FF 03 10 F0 FF ...  returns 0x00 (0001ms, 0720ms total)
T22E8 001:024 JLINK_ReadMemU32(0xE000ED00, 0x0001 Items, ...) -- CPU is running -- CPU_ReadMem(4 bytes @ 0xE000ED00) - Data: 31 C2 1F 41  returns 0x01 (0001ms, 0721ms total)
T22E8 001:025 JLINK_SetResetType(JLINKARM_RESET_TYPE_NORMAL)  returns JLINKARM_RESET_TYPE_NORMAL (0000ms, 0721ms total)
T22E8 001:025 JLINK_Reset() -- CPU is running -- CPU_WriteMem(4 bytes @ 0xE000EDF0) -- CPU is running -- CPU_WriteMem(4 bytes @ 0xE000EDFC) >0x35 TIF> -- CPU is running -- CPU_WriteMem(4 bytes @ 0xE000ED0C) -- CPU is running -- CPU_ReadMem(4 bytes @ 0xE000EDF0) -- CPU is running -- CPU_ReadMem(4 bytes @ 0xE000EDF0) -- CPU is running -- CPU_WriteMem(4 bytes @ 0xE000EDF0) -- CPU is running -- CPU_WriteMem(4 bytes @ 0xE000EDFC) -- CPU is running -- CPU_ReadMem(4 bytes @ 0xE000EDF0)
 -- CPU_WriteMem(4 bytes @ 0xE0002000) -- CPU_ReadMem(4 bytes @ 0xE000EDFC) -- CPU_ReadMem(4 bytes @ 0xE0001000) (0025ms, 0746ms total)
T22E8 001:050 JLINK_Halt()  returns 0x00 (0000ms, 0746ms total)
T22E8 001:050 JLINK_IsHalted()  returns TRUE (0000ms, 0746ms total)
T22E8 001:050 JLINK_ReadMemU32(0xE000EDF0, 0x0001 Items, ...) -- CPU_ReadMem(4 bytes @ 0xE000EDF0) - Data: 03 00 03 00  returns 0x01 (0001ms, 0747ms total)
T22E8 001:051 JLINK_WriteU32(0xE000EDF0, 0xA05F0003) -- CPU_WriteMem(4 bytes @ 0xE000EDF0)  returns 0x00 (0001ms, 0748ms total)
T22E8 001:052 JLINK_WriteU32(0xE000EDFC, 0x01000000) -- CPU_WriteMem(4 bytes @ 0xE000EDFC)  returns 0x00 (0001ms, 0749ms total)
T22E8 001:061 JLINK_GetHWStatus(...)  returns 0x00 (0002ms, 0751ms total)
T22E8 001:068 JLINK_GetNumBPUnits(Type = 0xFFFFFF00)  returns 0x06 (0000ms, 0751ms total)
T22E8 001:068 JLINK_GetNumBPUnits(Type = 0xF0)  returns 0x2000 (0000ms, 0751ms total)
T22E8 001:068 JLINK_GetNumWPUnits()  returns 0x04 (0000ms, 0751ms total)
T22E8 001:074 JLINK_GetSpeed()  returns 0x7D0 (0000ms, 0751ms total)
T22E8 001:079 JLINK_ReadMemU32(0xE000E004, 0x0001 Items, ...) -- CPU_ReadMem(4 bytes @ 0xE000E004) - Data: 01 00 00 00  returns 0x01 (0001ms, 0752ms total)
T22E8 001:080 JLINK_ReadMemU32(0xE000E004, 0x0001 Items, ...) -- CPU_ReadMem(4 bytes @ 0xE000E004) - Data: 01 00 00 00  returns 0x01 (0001ms, 0753ms total)
T22E8 001:081 JLINK_WriteMem(0xE0001000, 0x001C Bytes, ...) - Data: 01 00 00 00 00 00 00 00 00 00 00 00 00 00 00 00 ... -- CPU_WriteMem(28 bytes @ 0xE0001000)  returns 0x1C (0001ms, 0754ms total)
T22E8 001:082 JLINK_ReadMem (0xE0001000, 0x001C Bytes, ...) -- CPU_ReadMem(28 bytes @ 0xE0001000) - Data: 01 00 00 40 00 00 00 00 00 00 00 00 00 00 00 00 ...  returns 0x00 (0001ms, 0755ms total)
T22E8 001:083 JLINK_Halt()  returns 0x00 (0000ms, 0755ms total)
T22E8 001:083 JLINK_IsHalted()  returns TRUE (0000ms, 0755ms total)
T22E8 001:086 JLINK_WriteMem(0x20000000, 0x0164 Bytes, ...) - Data: 00 BE 0A E0 0D 78 2D 06 68 40 08 24 40 00 00 D3 ... -- CPU_WriteMem(356 bytes @ 0x20000000)  returns 0x164 (0003ms, 0758ms total)
T22E8 001:089 JLINK_WriteReg(R0, 0x08000000)  returns 0x00 (0000ms, 0758ms total)
T22E8 001:089 JLINK_WriteReg(R1, 0x007A1200)  returns 0x00 (0000ms, 0758ms total)
T22E8 001:089 JLINK_WriteReg(R2, 0x00000001)  returns 0x00 (0000ms, 0758ms total)
T22E8 001:089 JLINK_WriteReg(R3, 0x00000000)  returns 0x00 (0000ms, 0758ms total)
T22E8 001:089 JLINK_WriteReg(R4, 0x00000000)  returns 0x00 (0000ms, 0758ms total)
T22E8 001:089 JLINK_WriteReg(R5, 0x00000000)  returns 0x00 (0000ms, 0758ms total)
T22E8 001:089 JLINK_WriteReg(R6, 0x00000000)  returns 0x00 (0000ms, 0758ms total)
T22E8 001:089 JLINK_WriteReg(R7, 0x00000000)  returns 0x00 (0000ms, 0758ms total)
T22E8 001:089 JLINK_WriteReg(R8, 0x00000000)  returns 0x00 (0000ms, 0758ms total)
T22E8 001:089 JLINK_WriteReg(R9, 0x20000160)  returns 0x00 (0000ms, 0758ms total)
T22E8 001:089 JLINK_WriteReg(R10, 0x00000000)  returns 0x00 (0000ms, 0758ms total)
T22E8 001:089 JLINK_WriteReg(R11, 0x00000000)  returns 0x00 (0001ms, 0759ms total)
T22E8 001:090 JLINK_WriteReg(R12, 0x00000000)  returns 0x00 (0000ms, 0759ms total)
T22E8 001:090 JLINK_WriteReg(R13 (SP), 0x20000800)  returns 0x00 (0000ms, 0759ms total)
T22E8 001:090 JLINK_WriteReg(R14, 0x20000001)  returns 0x00 (0000ms, 0759ms total)
T22E8 001:090 JLINK_WriteReg(R15 (PC), 0x20000038)  returns 0x00 (0000ms, 0759ms total)
T22E8 001:090 JLINK_WriteReg(XPSR, 0x01000000)  returns 0x00 (0000ms, 0759ms total)
T22E8 001:090 JLINK_WriteReg(MSP, 0x20000800)  returns 0x00 (0000ms, 0759ms total)
T22E8 001:090 JLINK_WriteReg(PSP, 0x20000800)  returns 0x00 (0000ms, 0759ms total)
T22E8 001:090 JLINK_WriteReg(CFBP, 0x00000000)  returns 0x00 (0000ms, 0759ms total)
T22E8 001:090 JLINK_SetBPEx(Addr = 0x20000000, Type = 0xFFFFFFF2) -- CPU_ReadMem(2 bytes @ 0x20000000)  returns 0x00000001 (0001ms, 0760ms total)
T22E8 001:091 JLINK_Go() -- CPU_WriteMem(2 bytes @ 0x20000000) -- CPU_WriteMem(4 bytes @ 0xE0002008) -- CPU_WriteMem(4 bytes @ 0xE000200C) -- CPU_WriteMem(4 bytes @ 0xE0002010) -- CPU_WriteMem(4 bytes @ 0xE0002014) -- CPU_WriteMem(4 bytes @ 0xE0002018) -- CPU_WriteMem(4 bytes @ 0xE000201C) -- CPU_WriteMem(4 bytes @ 0xE0001004) (0011ms, 0771ms total)
T22E8 001:103 JLINK_IsHalted() -- CPU_ReadMem(2 bytes @ 0x20000000)  returns TRUE (0005ms, 0777ms total)
T22E8 001:108 JLINK_ReadReg(R15 (PC))  returns 0x20000000 (0000ms, 0772ms total)
T22E8 001:108 JLINK_ClrBPEx(BPHandle = 0x00000001)  returns 0x00 (0000ms, 0772ms total)
T22E8 001:108 JLINK_ReadReg(R0)  returns 0x00000000 (0000ms, 0772ms total)
T22E8 001:108 JLINK_WriteReg(R0, 0x08000000)  returns 0x00 (0000ms, 0772ms total)
T22E8 001:108 JLINK_WriteReg(R1, 0x007A1200)  returns 0x00 (0000ms, 0772ms total)
T22E8 001:108 JLINK_WriteReg(R2, 0x00000001)  returns 0x00 (0000ms, 0772ms total)
T22E8 001:108 JLINK_WriteReg(R3, 0x00000000)  returns 0x00 (0000ms, 0772ms total)
T22E8 001:108 JLINK_WriteReg(R4, 0x00000000)  returns 0x00 (0000ms, 0772ms total)
T22E8 001:108 JLINK_WriteReg(R5, 0x00000000)  returns 0x00 (0000ms, 0772ms total)
T22E8 001:108 JLINK_WriteReg(R6, 0x00000000)  returns 0x00 (0001ms, 0773ms total)
T22E8 001:109 JLINK_WriteReg(R7, 0x00000000)  returns 0x00 (0000ms, 0773ms total)
T22E8 001:109 JLINK_WriteReg(R8, 0x00000000)  returns 0x00 (0000ms, 0773ms total)
T22E8 001:109 JLINK_WriteReg(R9, 0x20000160)  returns 0x00 (0000ms, 0773ms total)
T22E8 001:109 JLINK_WriteReg(R10, 0x00000000)  returns 0x00 (0000ms, 0773ms total)
T22E8 001:109 JLINK_WriteReg(R11, 0x00000000)  returns 0x00 (0000ms, 0773ms total)
T22E8 001:109 JLINK_WriteReg(R12, 0x00000000)  returns 0x00 (0000ms, 0773ms total)
T22E8 001:109 JLINK_WriteReg(R13 (SP), 0x20000800)  returns 0x00 (0000ms, 0773ms total)
T22E8 001:109 JLINK_WriteReg(R14, 0x20000001)  returns 0x00 (0000ms, 0773ms total)
T22E8 001:109 JLINK_WriteReg(R15 (PC), 0x2000007C)  returns 0x00 (0000ms, 0773ms total)
T22E8 001:109 JLINK_WriteReg(XPSR, 0x01000000)  returns 0x00 (0000ms, 0773ms total)
T22E8 001:109 JLINK_WriteReg(MSP, 0x20000800)  returns 0x00 (0000ms, 0773ms total)
T22E8 001:109 JLINK_WriteReg(PSP, 0x20000800)  returns 0x00 (0000ms, 0773ms total)
T22E8 001:109 JLINK_WriteReg(CFBP, 0x00000000)  returns 0x00 (0000ms, 0773ms total)
T22E8 001:109 JLINK_SetBPEx(Addr = 0x20000000, Type = 0xFFFFFFF2)  returns 0x00000002 (0000ms, 0773ms total)
T22E8 001:109 JLINK_Go() (0003ms, 0776ms total)
T22E8 001:112 JLINK_IsHalted()  returns FALSE (0001ms, 0777ms total)
T22E8 001:131 JLINK_IsHalted()  returns FALSE (0001ms, 0777ms total)
T22E8 001:134 JLINK_IsHalted() -- CPU_ReadMem(2 bytes @ 0x20000000)  returns TRUE (0005ms, 0781ms total)
T22E8 001:140 JLINK_ReadReg(R15 (PC))  returns 0x20000000 (0000ms, 0776ms total)
T22E8 001:140 JLINK_ClrBPEx(BPHandle = 0x00000002)  returns 0x00 (0000ms, 0776ms total)
T22E8 001:140 JLINK_ReadReg(R0)  returns 0x00000000 (0000ms, 0776ms total)
T22E8 001:192 JLINK_WriteReg(R0, 0x00000001)  returns 0x00 (0000ms, 0776ms total)
T22E8 001:192 JLINK_WriteReg(R1, 0x007A1200)  returns 0x00 (0000ms, 0776ms total)
T22E8 001:192 JLINK_WriteReg(R2, 0x00000001)  returns 0x00 (0000ms, 0776ms total)
T22E8 001:192 JLINK_WriteReg(R3, 0x00000000)  returns 0x00 (0000ms, 0776ms total)
T22E8 001:193 JLINK_WriteReg(R4, 0x00000000)  returns 0x00 (0000ms, 0777ms total)
T22E8 001:193 JLINK_WriteReg(R5, 0x00000000)  returns 0x00 (0000ms, 0777ms total)
T22E8 001:193 JLINK_WriteReg(R6, 0x00000000)  returns 0x00 (0000ms, 0777ms total)
T22E8 001:193 JLINK_WriteReg(R7, 0x00000000)  returns 0x00 (0000ms, 0777ms total)
T22E8 001:193 JLINK_WriteReg(R8, 0x00000000)  returns 0x00 (0000ms, 0777ms total)
T22E8 001:193 JLINK_WriteReg(R9, 0x20000160)  returns 0x00 (0000ms, 0777ms total)
T22E8 001:193 JLINK_WriteReg(R10, 0x00000000)  returns 0x00 (0000ms, 0777ms total)
T22E8 001:193 JLINK_WriteReg(R11, 0x00000000)  returns 0x00 (0000ms, 0777ms total)
T22E8 001:193 JLINK_WriteReg(R12, 0x00000000)  returns 0x00 (0001ms, 0778ms total)
T22E8 001:194 JLINK_WriteReg(R13 (SP), 0x20000800)  returns 0x00 (0000ms, 0778ms total)
T22E8 001:194 JLINK_WriteReg(R14, 0x20000001)  returns 0x00 (0000ms, 0778ms total)
T22E8 001:194 JLINK_WriteReg(R15 (PC), 0x2000006A)  returns 0x00 (0000ms, 0778ms total)
T22E8 001:194 JLINK_WriteReg(XPSR, 0x01000000)  returns 0x00 (0000ms, 0778ms total)
T22E8 001:194 JLINK_WriteReg(MSP, 0x20000800)  returns 0x00 (0000ms, 0778ms total)
T22E8 001:194 JLINK_WriteReg(PSP, 0x20000800)  returns 0x00 (0000ms, 0778ms total)
T22E8 001:194 JLINK_WriteReg(CFBP, 0x00000000)  returns 0x00 (0000ms, 0778ms total)
T22E8 001:194 JLINK_SetBPEx(Addr = 0x20000000, Type = 0xFFFFFFF2)  returns 0x00000003 (0000ms, 0778ms total)
T22E8 001:194 JLINK_Go() (0003ms, 0781ms total)
T22E8 001:197 JLINK_IsHalted() -- CPU_ReadMem(2 bytes @ 0x20000000)  returns TRUE (0006ms, 0787ms total)
T22E8 001:203 JLINK_ReadReg(R15 (PC))  returns 0x20000000 (0001ms, 0782ms total)
T22E8 001:204 JLINK_ClrBPEx(BPHandle = 0x00000003)  returns 0x00 (0000ms, 0782ms total)
T22E8 001:204 JLINK_ReadReg(R0)  returns 0x00000000 (0000ms, 0782ms total)
T22E8 001:218 JLINK_WriteMem(0x20000000, 0x0164 Bytes, ...) - Data: 00 BE 0A E0 0D 78 2D 06 68 40 08 24 40 00 00 D3 ... -- CPU_WriteMem(356 bytes @ 0x20000000)  returns 0x164 (0004ms, 0786ms total)
T22E8 001:222 JLINK_WriteReg(R0, 0x08000000)  returns 0x00 (0000ms, 0786ms total)
T22E8 001:222 JLINK_WriteReg(R1, 0x007A1200)  returns 0x00 (0000ms, 0786ms total)
T22E8 001:222 JLINK_WriteReg(R2, 0x00000002)  returns 0x00 (0000ms, 0786ms total)
T22E8 001:222 JLINK_WriteReg(R3, 0x00000000)  returns 0x00 (0000ms, 0786ms total)
T22E8 001:222 JLINK_WriteReg(R4, 0x00000000)  returns 0x00 (0000ms, 0786ms total)
T22E8 001:222 JLINK_WriteReg(R5, 0x00000000)  returns 0x00 (0000ms, 0786ms total)
T22E8 001:222 JLINK_WriteReg(R6, 0x00000000)  returns 0x00 (0000ms, 0786ms total)
T22E8 001:223 JLINK_WriteReg(R7, 0x00000000)  returns 0x00 (0000ms, 0787ms total)
T22E8 001:223 JLINK_WriteReg(R8, 0x00000000)  returns 0x00 (0000ms, 0787ms total)
T22E8 001:223 JLINK_WriteReg(R9, 0x20000160)  returns 0x00 (0000ms, 0787ms total)
T22E8 001:223 JLINK_WriteReg(R10, 0x00000000)  returns 0x00 (0000ms, 0787ms total)
T22E8 001:223 JLINK_WriteReg(R11, 0x00000000)  returns 0x00 (0000ms, 0787ms total)
T22E8 001:223 JLINK_WriteReg(R12, 0x00000000)  returns 0x00 (0000ms, 0787ms total)
T22E8 001:223 JLINK_WriteReg(R13 (SP), 0x20000800)  returns 0x00 (0000ms, 0787ms total)
T22E8 001:223 JLINK_WriteReg(R14, 0x20000001)  returns 0x00 (0000ms, 0787ms total)
T22E8 001:223 JLINK_WriteReg(R15 (PC), 0x20000038)  returns 0x00 (0001ms, 0788ms total)
T22E8 001:224 JLINK_WriteReg(XPSR, 0x01000000)  returns 0x00 (0000ms, 0788ms total)
T22E8 001:224 JLINK_WriteReg(MSP, 0x20000800)  returns 0x00 (0000ms, 0788ms total)
T22E8 001:224 JLINK_WriteReg(PSP, 0x20000800)  returns 0x00 (0000ms, 0788ms total)
T22E8 001:224 JLINK_WriteReg(CFBP, 0x00000000)  returns 0x00 (0000ms, 0788ms total)
T22E8 001:224 JLINK_SetBPEx(Addr = 0x20000000, Type = 0xFFFFFFF2) -- CPU_ReadMem(2 bytes @ 0x20000000)  returns 0x00000004 (0002ms, 0790ms total)
T22E8 001:226 JLINK_Go() -- CPU_WriteMem(2 bytes @ 0x20000000) (0005ms, 0795ms total)
T22E8 001:231 JLINK_IsHalted() -- CPU_ReadMem(2 bytes @ 0x20000000)  returns TRUE (0006ms, 0801ms total)
T22E8 001:237 JLINK_ReadReg(R15 (PC))  returns 0x20000000 (0000ms, 0795ms total)
T22E8 001:237 JLINK_ClrBPEx(BPHandle = 0x00000004)  returns 0x00 (0000ms, 0795ms total)
T22E8 001:237 JLINK_ReadReg(R0)  returns 0x00000000 (0000ms, 0795ms total)
T22E8 001:238 JLINK_WriteMem(0x20000164, 0x0400 Bytes, ...) - Data: A8 87 00 20 F9 0E 00 08 2D 05 00 08 2F 05 00 08 ... -- CPU_WriteMem(1024 bytes @ 0x20000164)  returns 0x400 (0008ms, 0803ms total)
T22E8 001:246 JLINK_WriteReg(R0, 0x08000000)  returns 0x00 (0000ms, 0803ms total)
T22E8 001:246 JLINK_WriteReg(R1, 0x00000400)  returns 0x00 (0001ms, 0804ms total)
T22E8 001:247 JLINK_WriteReg(R2, 0x20000164)  returns 0x00 (0000ms, 0804ms total)
T22E8 001:247 JLINK_WriteReg(R3, 0x00000000)  returns 0x00 (0000ms, 0804ms total)
T22E8 001:247 JLINK_WriteReg(R4, 0x00000000)  returns 0x00 (0000ms, 0804ms total)
T22E8 001:247 JLINK_WriteReg(R5, 0x00000000)  returns 0x00 (0000ms, 0804ms total)
T22E8 001:247 JLINK_WriteReg(R6, 0x00000000)  returns 0x00 (0000ms, 0804ms total)
T22E8 001:247 JLINK_WriteReg(R7, 0x00000000)  returns 0x00 (0000ms, 0804ms total)
T22E8 001:247 JLINK_WriteReg(R8, 0x00000000)  returns 0x00 (0000ms, 0804ms total)
T22E8 001:247 JLINK_WriteReg(R9, 0x20000160)  returns 0x00 (0000ms, 0804ms total)
T22E8 001:247 JLINK_WriteReg(R10, 0x00000000)  returns 0x00 (0000ms, 0804ms total)
T22E8 001:247 JLINK_WriteReg(R11, 0x00000000)  returns 0x00 (0000ms, 0804ms total)
T22E8 001:247 JLINK_WriteReg(R12, 0x00000000)  returns 0x00 (0000ms, 0804ms total)
T22E8 001:247 JLINK_WriteReg(R13 (SP), 0x20000800)  returns 0x00 (0000ms, 0804ms total)
T22E8 001:247 JLINK_WriteReg(R14, 0x20000001)  returns 0x00 (0000ms, 0804ms total)
T22E8 001:247 JLINK_WriteReg(R15 (PC), 0x200000F4)  returns 0x00 (0000ms, 0804ms total)
T22E8 001:247 JLINK_WriteReg(XPSR, 0x01000000)  returns 0x00 (0000ms, 0804ms total)
T22E8 001:247 JLINK_WriteReg(MSP, 0x20000800)  returns 0x00 (0000ms, 0804ms total)
T22E8 001:247 JLINK_WriteReg(PSP, 0x20000800)  returns 0x00 (0000ms, 0804ms total)
T22E8 001:247 JLINK_WriteReg(CFBP, 0x00000000)  returns 0x00 (0000ms, 0804ms total)
T22E8 001:247 JLINK_SetBPEx(Addr = 0x20000000, Type = 0xFFFFFFF2)  returns 0x00000005 (0001ms, 0805ms total)
T22E8 001:248 JLINK_Go() (0002ms, 0807ms total)
T22E8 001:250 JLINK_IsHalted()  returns FALSE (0001ms, 0808ms total)
T22E8 001:261 JLINK_IsHalted()  returns FALSE (0001ms, 0808ms total)
T22E8 001:263 JLINK_IsHalted()  returns FALSE (0001ms, 0808ms total)
T22E8 001:265 JLINK_IsHalted()  returns FALSE (0001ms, 0808ms total)
T22E8 001:267 JLINK_IsHalted()  returns FALSE (0001ms, 0808ms total)
T22E8 001:269 JLINK_IsHalted()  returns FALSE (0001ms, 0808ms total)
T22E8 001:271 JLINK_IsHalted()  returns FALSE (0001ms, 0808ms total)
T22E8 001:273 JLINK_IsHalted()  returns FALSE (0001ms, 0808ms total)
T22E8 001:278 JLINK_IsHalted()  returns FALSE (0001ms, 0808ms total)
T22E8 001:280 JLINK_IsHalted()  returns FALSE (0001ms, 0808ms total)
T22E8 001:282 JLINK_IsHalted() -- CPU_ReadMem(2 bytes @ 0x20000000)  returns TRUE (0005ms, 0812ms total)
T22E8 001:287 JLINK_ReadReg(R15 (PC))  returns 0x20000000 (0000ms, 0807ms total)
T22E8 001:287 JLINK_ClrBPEx(BPHandle = 0x00000005)  returns 0x00 (0000ms, 0807ms total)
T22E8 001:287 JLINK_ReadReg(R0)  returns 0x00000000 (0000ms, 0807ms total)
T22E8 001:288 JLINK_WriteMem(0x20000164, 0x0400 Bytes, ...) - Data: 51 51 20 41 41 20 48 48 20 59 59 20 49 20 3A 25 ... -- CPU_WriteMem(1024 bytes @ 0x20000164)  returns 0x400 (0009ms, 0817ms total)
T22E8 001:297 JLINK_WriteReg(R0, 0x08000400)  returns 0x00 (0000ms, 0817ms total)
T22E8 001:297 JLINK_WriteReg(R1, 0x00000400)  returns 0x00 (0000ms, 0817ms total)
T22E8 001:297 JLINK_WriteReg(R2, 0x20000164)  returns 0x00 (0000ms, 0817ms total)
T22E8 001:297 JLINK_WriteReg(R3, 0x00000000)  returns 0x00 (0000ms, 0817ms total)
T22E8 001:297 JLINK_WriteReg(R4, 0x00000000)  returns 0x00 (0000ms, 0817ms total)
T22E8 001:297 JLINK_WriteReg(R5, 0x00000000)  returns 0x00 (0000ms, 0817ms total)
T22E8 001:297 JLINK_WriteReg(R6, 0x00000000)  returns 0x00 (0000ms, 0817ms total)
T22E8 001:297 JLINK_WriteReg(R7, 0x00000000)  returns 0x00 (0000ms, 0817ms total)
T22E8 001:297 JLINK_WriteReg(R8, 0x00000000)  returns 0x00 (0000ms, 0817ms total)
T22E8 001:297 JLINK_WriteReg(R9, 0x20000160)  returns 0x00 (0000ms, 0817ms total)
T22E8 001:297 JLINK_WriteReg(R10, 0x00000000)  returns 0x00 (0000ms, 0817ms total)
T22E8 001:297 JLINK_WriteReg(R11, 0x00000000)  returns 0x00 (0000ms, 0817ms total)
T22E8 001:297 JLINK_WriteReg(R12, 0x00000000)  returns 0x00 (0000ms, 0817ms total)
T22E8 001:297 JLINK_WriteReg(R13 (SP), 0x20000800)  returns 0x00 (0001ms, 0818ms total)
T22E8 001:298 JLINK_WriteReg(R14, 0x20000001)  returns 0x00 (0000ms, 0818ms total)
T22E8 001:298 JLINK_WriteReg(R15 (PC), 0x200000F4)  returns 0x00 (0000ms, 0818ms total)
T22E8 001:298 JLINK_WriteReg(XPSR, 0x01000000)  returns 0x00 (0000ms, 0818ms total)
T22E8 001:298 JLINK_WriteReg(MSP, 0x20000800)  returns 0x00 (0000ms, 0818ms total)
T22E8 001:298 JLINK_WriteReg(PSP, 0x20000800)  returns 0x00 (0000ms, 0818ms total)
T22E8 001:298 JLINK_WriteReg(CFBP, 0x00000000)  returns 0x00 (0000ms, 0818ms total)
T22E8 001:298 JLINK_SetBPEx(Addr = 0x20000000, Type = 0xFFFFFFF2)  returns 0x00000006 (0000ms, 0818ms total)
T22E8 001:298 JLINK_Go() (0004ms, 0822ms total)
T22E8 001:302 JLINK_IsHalted()  returns FALSE (0001ms, 0823ms total)
T22E8 001:306 JLINK_IsHalted()  returns FALSE (0001ms, 0823ms total)
T22E8 001:308 JLINK_IsHalted()  returns FALSE (0001ms, 0823ms total)
T22E8 001:310 JLINK_IsHalted()  returns FALSE (0001ms, 0823ms total)
T22E8 001:312 JLINK_IsHalted()  returns FALSE (0001ms, 0823ms total)
T22E8 001:314 JLINK_IsHalted()  returns FALSE (0001ms, 0823ms total)
T22E8 001:316 JLINK_IsHalted()  returns FALSE (0001ms, 0823ms total)
T22E8 001:319 JLINK_IsHalted()  returns FALSE (0001ms, 0823ms total)
T22E8 001:321 JLINK_IsHalted()  returns FALSE (0001ms, 0823ms total)
T22E8 001:323 JLINK_IsHalted()  returns FALSE (0001ms, 0823ms total)
T22E8 001:325 JLINK_IsHalted()  returns FALSE (0001ms, 0823ms total)
T22E8 001:327 JLINK_IsHalted()  returns FALSE (0001ms, 0823ms total)
T22E8 001:329 JLINK_IsHalted()  returns FALSE (0000ms, 0822ms total)
T22E8 001:330 JLINK_IsHalted()  returns FALSE (0001ms, 0823ms total)
T22E8 001:332 JLINK_IsHalted() -- CPU_ReadMem(2 bytes @ 0x20000000)  returns TRUE (0006ms, 0828ms total)
T22E8 001:338 JLINK_ReadReg(R15 (PC))  returns 0x20000000 (0000ms, 0822ms total)
T22E8 001:338 JLINK_ClrBPEx(BPHandle = 0x00000006)  returns 0x00 (0000ms, 0822ms total)
T22E8 001:338 JLINK_ReadReg(R0)  returns 0x00000000 (0000ms, 0822ms total)
T22E8 001:339 JLINK_WriteMem(0x20000164, 0x0400 Bytes, ...) - Data: 00 04 00 40 28 00 00 20 08 B5 01 21 48 F2 14 20 ... -- CPU_WriteMem(1024 bytes @ 0x20000164)  returns 0x400 (0008ms, 0830ms total)
T22E8 001:347 JLINK_WriteReg(R0, 0x08000800)  returns 0x00 (0000ms, 0830ms total)
T22E8 001:347 JLINK_WriteReg(R1, 0x00000400)  returns 0x00 (0001ms, 0831ms total)
T22E8 001:348 JLINK_WriteReg(R2, 0x20000164)  returns 0x00 (0000ms, 0831ms total)
T22E8 001:348 JLINK_WriteReg(R3, 0x00000000)  returns 0x00 (0000ms, 0831ms total)
T22E8 001:348 JLINK_WriteReg(R4, 0x00000000)  returns 0x00 (0000ms, 0831ms total)
T22E8 001:348 JLINK_WriteReg(R5, 0x00000000)  returns 0x00 (0000ms, 0831ms total)
T22E8 001:348 JLINK_WriteReg(R6, 0x00000000)  returns 0x00 (0000ms, 0831ms total)
T22E8 001:348 JLINK_WriteReg(R7, 0x00000000)  returns 0x00 (0000ms, 0831ms total)
T22E8 001:348 JLINK_WriteReg(R8, 0x00000000)  returns 0x00 (0000ms, 0831ms total)
T22E8 001:348 JLINK_WriteReg(R9, 0x20000160)  returns 0x00 (0000ms, 0831ms total)
T22E8 001:348 JLINK_WriteReg(R10, 0x00000000)  returns 0x00 (0000ms, 0831ms total)
T22E8 001:348 JLINK_WriteReg(R11, 0x00000000)  returns 0x00 (0000ms, 0831ms total)
T22E8 001:348 JLINK_WriteReg(R12, 0x00000000)  returns 0x00 (0000ms, 0831ms total)
T22E8 001:348 JLINK_WriteReg(R13 (SP), 0x20000800)  returns 0x00 (0000ms, 0831ms total)
T22E8 001:348 JLINK_WriteReg(R14, 0x20000001)  returns 0x00 (0000ms, 0831ms total)
T22E8 001:348 JLINK_WriteReg(R15 (PC), 0x200000F4)  returns 0x00 (0001ms, 0832ms total)
T22E8 001:349 JLINK_WriteReg(XPSR, 0x01000000)  returns 0x00 (0000ms, 0832ms total)
T22E8 001:349 JLINK_WriteReg(MSP, 0x20000800)  returns 0x00 (0000ms, 0832ms total)
T22E8 001:349 JLINK_WriteReg(PSP, 0x20000800)  returns 0x00 (0000ms, 0832ms total)
T22E8 001:349 JLINK_WriteReg(CFBP, 0x00000000)  returns 0x00 (0000ms, 0832ms total)
T22E8 001:349 JLINK_SetBPEx(Addr = 0x20000000, Type = 0xFFFFFFF2)  returns 0x00000007 (0000ms, 0832ms total)
T22E8 001:349 JLINK_Go() (0002ms, 0834ms total)
T22E8 001:351 JLINK_IsHalted()  returns FALSE (0001ms, 0835ms total)
T22E8 001:357 JLINK_IsHalted()  returns FALSE (0001ms, 0835ms total)
T22E8 001:359 JLINK_IsHalted()  returns FALSE (0001ms, 0835ms total)
T22E8 001:361 JLINK_IsHalted()  returns FALSE (0001ms, 0835ms total)
T22E8 001:365 JLINK_IsHalted()  returns FALSE (0001ms, 0835ms total)
T22E8 001:367 JLINK_IsHalted()  returns FALSE (0001ms, 0835ms total)
T22E8 001:369 JLINK_IsHalted()  returns FALSE (0001ms, 0835ms total)
T22E8 001:373 JLINK_IsHalted()  returns FALSE (0001ms, 0835ms total)
T22E8 001:375 JLINK_IsHalted()  returns FALSE (0001ms, 0835ms total)
T22E8 001:377 JLINK_IsHalted()  returns FALSE (0001ms, 0835ms total)
T22E8 001:381 JLINK_IsHalted()  returns FALSE (0001ms, 0835ms total)
T22E8 001:384 JLINK_IsHalted() -- CPU_ReadMem(2 bytes @ 0x20000000)  returns TRUE (0006ms, 0840ms total)
T22E8 001:390 JLINK_ReadReg(R15 (PC))  returns 0x20000000 (0000ms, 0834ms total)
T22E8 001:390 JLINK_ClrBPEx(BPHandle = 0x00000007)  returns 0x00 (0000ms, 0834ms total)
T22E8 001:390 JLINK_ReadReg(R0)  returns 0x00000000 (0000ms, 0834ms total)
T22E8 001:390 JLINK_WriteMem(0x20000164, 0x0400 Bytes, ...) - Data: 0A FC 03 23 01 22 0A 21 0A 48 4C 38 01 F0 43 FF ... -- CPU_WriteMem(1024 bytes @ 0x20000164)  returns 0x400 (0009ms, 0843ms total)
T22E8 001:399 JLINK_WriteReg(R0, 0x08000C00)  returns 0x00 (0000ms, 0843ms total)
T22E8 001:399 JLINK_WriteReg(R1, 0x00000400)  returns 0x00 (0000ms, 0843ms total)
T22E8 001:399 JLINK_WriteReg(R2, 0x20000164)  returns 0x00 (0000ms, 0843ms total)
T22E8 001:399 JLINK_WriteReg(R3, 0x00000000)  returns 0x00 (0000ms, 0843ms total)
T22E8 001:399 JLINK_WriteReg(R4, 0x00000000)  returns 0x00 (0000ms, 0843ms total)
T22E8 001:399 JLINK_WriteReg(R5, 0x00000000)  returns 0x00 (0000ms, 0843ms total)
T22E8 001:399 JLINK_WriteReg(R6, 0x00000000)  returns 0x00 (0000ms, 0843ms total)
T22E8 001:399 JLINK_WriteReg(R7, 0x00000000)  returns 0x00 (0001ms, 0844ms total)
T22E8 001:400 JLINK_WriteReg(R8, 0x00000000)  returns 0x00 (0000ms, 0844ms total)
T22E8 001:400 JLINK_WriteReg(R9, 0x20000160)  returns 0x00 (0000ms, 0844ms total)
T22E8 001:400 JLINK_WriteReg(R10, 0x00000000)  returns 0x00 (0000ms, 0844ms total)
T22E8 001:400 JLINK_WriteReg(R11, 0x00000000)  returns 0x00 (0000ms, 0844ms total)
T22E8 001:400 JLINK_WriteReg(R12, 0x00000000)  returns 0x00 (0000ms, 0844ms total)
T22E8 001:400 JLINK_WriteReg(R13 (SP), 0x20000800)  returns 0x00 (0000ms, 0844ms total)
T22E8 001:400 JLINK_WriteReg(R14, 0x20000001)  returns 0x00 (0000ms, 0844ms total)
T22E8 001:400 JLINK_WriteReg(R15 (PC), 0x200000F4)  returns 0x00 (0000ms, 0844ms total)
T22E8 001:400 JLINK_WriteReg(XPSR, 0x01000000)  returns 0x00 (0000ms, 0844ms total)
T22E8 001:400 JLINK_WriteReg(MSP, 0x20000800)  returns 0x00 (0000ms, 0844ms total)
T22E8 001:400 JLINK_WriteReg(PSP, 0x20000800)  returns 0x00 (0000ms, 0844ms total)
T22E8 001:400 JLINK_WriteReg(CFBP, 0x00000000)  returns 0x00 (0000ms, 0844ms total)
T22E8 001:400 JLINK_SetBPEx(Addr = 0x20000000, Type = 0xFFFFFFF2)  returns 0x00000008 (0000ms, 0844ms total)
T22E8 001:400 JLINK_Go() (0003ms, 0847ms total)
T22E8 001:403 JLINK_IsHalted()  returns FALSE (0001ms, 0848ms total)
T22E8 001:406 JLINK_IsHalted()  returns FALSE (0001ms, 0848ms total)
T22E8 001:408 JLINK_IsHalted()  returns FALSE (0001ms, 0848ms total)
T22E8 001:410 JLINK_IsHalted()  returns FALSE (0001ms, 0848ms total)
T22E8 001:415 JLINK_IsHalted()  returns FALSE (0001ms, 0848ms total)
T22E8 001:417 JLINK_IsHalted()  returns FALSE (0001ms, 0848ms total)
T22E8 001:420 JLINK_IsHalted()  returns FALSE (0001ms, 0848ms total)
T22E8 001:422 JLINK_IsHalted()  returns FALSE (0001ms, 0848ms total)
T22E8 001:424 JLINK_IsHalted()  returns FALSE (0001ms, 0848ms total)
T22E8 001:426 JLINK_IsHalted()  returns FALSE (0001ms, 0848ms total)
T22E8 001:430 JLINK_IsHalted()  returns FALSE (0001ms, 0848ms total)
T22E8 001:432 JLINK_IsHalted()  returns FALSE (0001ms, 0848ms total)
T22E8 001:434 JLINK_IsHalted() -- CPU_ReadMem(2 bytes @ 0x20000000)  returns TRUE (0005ms, 0852ms total)
T22E8 001:439 JLINK_ReadReg(R15 (PC))  returns 0x20000000 (0001ms, 0848ms total)
T22E8 001:440 JLINK_ClrBPEx(BPHandle = 0x00000008)  returns 0x00 (0000ms, 0848ms total)
T22E8 001:440 JLINK_ReadReg(R0)  returns 0x00000000 (0000ms, 0848ms total)
T22E8 001:440 JLINK_WriteMem(0x20000164, 0x0400 Bytes, ...) - Data: 91 F8 02 C0 4C EA 05 05 91 F8 00 C0 BC F1 00 0F ... -- CPU_WriteMem(1024 bytes @ 0x20000164)  returns 0x400 (0009ms, 0857ms total)
T22E8 001:449 JLINK_WriteReg(R0, 0x08001000)  returns 0x00 (0000ms, 0857ms total)
T22E8 001:449 JLINK_WriteReg(R1, 0x00000400)  returns 0x00 (0000ms, 0857ms total)
T22E8 001:449 JLINK_WriteReg(R2, 0x20000164)  returns 0x00 (0000ms, 0857ms total)
T22E8 001:449 JLINK_WriteReg(R3, 0x00000000)  returns 0x00 (0000ms, 0857ms total)
T22E8 001:449 JLINK_WriteReg(R4, 0x00000000)  returns 0x00 (0000ms, 0857ms total)
T22E8 001:449 JLINK_WriteReg(R5, 0x00000000)  returns 0x00 (0000ms, 0857ms total)
T22E8 001:449 JLINK_WriteReg(R6, 0x00000000)  returns 0x00 (0000ms, 0857ms total)
T22E8 001:449 JLINK_WriteReg(R7, 0x00000000)  returns 0x00 (0000ms, 0857ms total)
T22E8 001:449 JLINK_WriteReg(R8, 0x00000000)  returns 0x00 (0000ms, 0857ms total)
T22E8 001:449 JLINK_WriteReg(R9, 0x20000160)  returns 0x00 (0000ms, 0857ms total)
T22E8 001:449 JLINK_WriteReg(R10, 0x00000000)  returns 0x00 (0000ms, 0857ms total)
T22E8 001:449 JLINK_WriteReg(R11, 0x00000000)  returns 0x00 (0000ms, 0857ms total)
T22E8 001:449 JLINK_WriteReg(R12, 0x00000000)  returns 0x00 (0000ms, 0857ms total)
T22E8 001:450 JLINK_WriteReg(R13 (SP), 0x20000800)  returns 0x00 (0000ms, 0858ms total)
T22E8 001:450 JLINK_WriteReg(R14, 0x20000001)  returns 0x00 (0000ms, 0858ms total)
T22E8 001:450 JLINK_WriteReg(R15 (PC), 0x200000F4)  returns 0x00 (0000ms, 0858ms total)
T22E8 001:450 JLINK_WriteReg(XPSR, 0x01000000)  returns 0x00 (0000ms, 0858ms total)
T22E8 001:450 JLINK_WriteReg(MSP, 0x20000800)  returns 0x00 (0000ms, 0858ms total)
T22E8 001:450 JLINK_WriteReg(PSP, 0x20000800)  returns 0x00 (0000ms, 0858ms total)
T22E8 001:450 JLINK_WriteReg(CFBP, 0x00000000)  returns 0x00 (0000ms, 0858ms total)
T22E8 001:450 JLINK_SetBPEx(Addr = 0x20000000, Type = 0xFFFFFFF2)  returns 0x00000009 (0000ms, 0858ms total)
T22E8 001:450 JLINK_Go() (0003ms, 0861ms total)
T22E8 001:453 JLINK_IsHalted()  returns FALSE (0001ms, 0862ms total)
T22E8 001:456 JLINK_IsHalted()  returns FALSE (0001ms, 0862ms total)
T22E8 001:458 JLINK_IsHalted()  returns FALSE (0001ms, 0862ms total)
T22E8 001:461 JLINK_IsHalted()  returns FALSE (0001ms, 0862ms total)
T22E8 001:464 JLINK_IsHalted()  returns FALSE (0001ms, 0862ms total)
T22E8 001:466 JLINK_IsHalted()  returns FALSE (0001ms, 0862ms total)
T22E8 001:469 JLINK_IsHalted()  returns FALSE (0001ms, 0862ms total)
T22E8 001:471 JLINK_IsHalted()  returns FALSE (0001ms, 0862ms total)
T22E8 001:473 JLINK_IsHalted()  returns FALSE (0001ms, 0862ms total)
T22E8 001:475 JLINK_IsHalted()  returns FALSE (0001ms, 0862ms total)
T22E8 001:479 JLINK_IsHalted()  returns FALSE (0001ms, 0862ms total)
T22E8 001:481 JLINK_IsHalted()  returns FALSE (0001ms, 0862ms total)
T22E8 001:484 JLINK_IsHalted() -- CPU_ReadMem(2 bytes @ 0x20000000)  returns TRUE (0006ms, 0867ms total)
T22E8 001:490 JLINK_ReadReg(R15 (PC))  returns 0x20000000 (0000ms, 0861ms total)
T22E8 001:490 JLINK_ClrBPEx(BPHandle = 0x00000009)  returns 0x00 (0000ms, 0861ms total)
T22E8 001:490 JLINK_ReadReg(R0)  returns 0x00000000 (0000ms, 0861ms total)
T22E8 001:490 JLINK_WriteMem(0x20000164, 0x0400 Bytes, ...) - Data: 5A 72 04 E0 79 4A 52 7A 82 43 78 4B 5A 72 70 47 ... -- CPU_WriteMem(1024 bytes @ 0x20000164)  returns 0x400 (0009ms, 0870ms total)
T22E8 001:499 JLINK_WriteReg(R0, 0x08001400)  returns 0x00 (0000ms, 0870ms total)
T22E8 001:499 JLINK_WriteReg(R1, 0x00000400)  returns 0x00 (0000ms, 0870ms total)
T22E8 001:499 JLINK_WriteReg(R2, 0x20000164)  returns 0x00 (0000ms, 0870ms total)
T22E8 001:499 JLINK_WriteReg(R3, 0x00000000)  returns 0x00 (0000ms, 0870ms total)
T22E8 001:499 JLINK_WriteReg(R4, 0x00000000)  returns 0x00 (0000ms, 0870ms total)
T22E8 001:499 JLINK_WriteReg(R5, 0x00000000)  returns 0x00 (0000ms, 0870ms total)
T22E8 001:499 JLINK_WriteReg(R6, 0x00000000)  returns 0x00 (0001ms, 0871ms total)
T22E8 001:500 JLINK_WriteReg(R7, 0x00000000)  returns 0x00 (0000ms, 0871ms total)
T22E8 001:500 JLINK_WriteReg(R8, 0x00000000)  returns 0x00 (0000ms, 0871ms total)
T22E8 001:500 JLINK_WriteReg(R9, 0x20000160)  returns 0x00 (0000ms, 0871ms total)
T22E8 001:500 JLINK_WriteReg(R10, 0x00000000)  returns 0x00 (0000ms, 0871ms total)
T22E8 001:500 JLINK_WriteReg(R11, 0x00000000)  returns 0x00 (0000ms, 0871ms total)
T22E8 001:500 JLINK_WriteReg(R12, 0x00000000)  returns 0x00 (0000ms, 0871ms total)
T22E8 001:500 JLINK_WriteReg(R13 (SP), 0x20000800)  returns 0x00 (0000ms, 0871ms total)
T22E8 001:500 JLINK_WriteReg(R14, 0x20000001)  returns 0x00 (0000ms, 0871ms total)
T22E8 001:500 JLINK_WriteReg(R15 (PC), 0x200000F4)  returns 0x00 (0000ms, 0871ms total)
T22E8 001:500 JLINK_WriteReg(XPSR, 0x01000000)  returns 0x00 (0000ms, 0871ms total)
T22E8 001:500 JLINK_WriteReg(MSP, 0x20000800)  returns 0x00 (0000ms, 0871ms total)
T22E8 001:500 JLINK_WriteReg(PSP, 0x20000800)  returns 0x00 (0000ms, 0871ms total)
T22E8 001:500 JLINK_WriteReg(CFBP, 0x00000000)  returns 0x00 (0000ms, 0871ms total)
T22E8 001:500 JLINK_SetBPEx(Addr = 0x20000000, Type = 0xFFFFFFF2)  returns 0x0000000A (0000ms, 0871ms total)
T22E8 001:500 JLINK_Go() (0003ms, 0874ms total)
T22E8 001:503 JLINK_IsHalted()  returns FALSE (0001ms, 0875ms total)
T22E8 001:508 JLINK_IsHalted()  returns FALSE (0001ms, 0875ms total)
T22E8 001:510 JLINK_IsHalted()  returns FALSE (0001ms, 0875ms total)
T22E8 001:512 JLINK_IsHalted()  returns FALSE (0001ms, 0875ms total)
T22E8 001:514 JLINK_IsHalted()  returns FALSE (0001ms, 0875ms total)
T22E8 001:516 JLINK_IsHalted()  returns FALSE (0001ms, 0875ms total)
T22E8 001:518 JLINK_IsHalted()  returns FALSE (0001ms, 0875ms total)
T22E8 001:520 JLINK_IsHalted()  returns FALSE (0001ms, 0875ms total)
T22E8 001:522 JLINK_IsHalted()  returns FALSE (0000ms, 0874ms total)
T22E8 001:523 JLINK_IsHalted()  returns FALSE (0001ms, 0875ms total)
T22E8 001:525 JLINK_IsHalted()  returns FALSE (0001ms, 0875ms total)
T22E8 001:527 JLINK_IsHalted()  returns FALSE (0001ms, 0875ms total)
T22E8 001:529 JLINK_IsHalted()  returns FALSE (0001ms, 0875ms total)
T22E8 001:531 JLINK_IsHalted()  returns FALSE (0001ms, 0875ms total)
T22E8 001:533 JLINK_IsHalted() -- CPU_ReadMem(2 bytes @ 0x20000000)  returns TRUE (0006ms, 0880ms total)
T22E8 001:539 JLINK_ReadReg(R15 (PC))  returns 0x20000000 (0000ms, 0874ms total)
T22E8 001:539 JLINK_ClrBPEx(BPHandle = 0x0000000A)  returns 0x00 (0000ms, 0874ms total)
T22E8 001:540 JLINK_ReadReg(R0)  returns 0x00000000 (0000ms, 0875ms total)
T22E8 001:540 JLINK_WriteMem(0x20000164, 0x0400 Bytes, ...) - Data: 10 30 00 E0 14 30 1A B1 07 68 2F 43 07 60 02 E0 ... -- CPU_WriteMem(1024 bytes @ 0x20000164)  returns 0x400 (0009ms, 0884ms total)
T22E8 001:549 JLINK_WriteReg(R0, 0x08001800)  returns 0x00 (0000ms, 0884ms total)
T22E8 001:549 JLINK_WriteReg(R1, 0x00000400)  returns 0x00 (0000ms, 0884ms total)
T22E8 001:549 JLINK_WriteReg(R2, 0x20000164)  returns 0x00 (0000ms, 0884ms total)
T22E8 001:549 JLINK_WriteReg(R3, 0x00000000)  returns 0x00 (0000ms, 0884ms total)
T22E8 001:549 JLINK_WriteReg(R4, 0x00000000)  returns 0x00 (0000ms, 0884ms total)
T22E8 001:549 JLINK_WriteReg(R5, 0x00000000)  returns 0x00 (0000ms, 0884ms total)
T22E8 001:549 JLINK_WriteReg(R6, 0x00000000)  returns 0x00 (0000ms, 0884ms total)
T22E8 001:549 JLINK_WriteReg(R7, 0x00000000)  returns 0x00 (0000ms, 0884ms total)
T22E8 001:549 JLINK_WriteReg(R8, 0x00000000)  returns 0x00 (0000ms, 0884ms total)
T22E8 001:549 JLINK_WriteReg(R9, 0x20000160)  returns 0x00 (0000ms, 0884ms total)
T22E8 001:549 JLINK_WriteReg(R10, 0x00000000)  returns 0x00 (0000ms, 0884ms total)
T22E8 001:549 JLINK_WriteReg(R11, 0x00000000)  returns 0x00 (0000ms, 0884ms total)
T22E8 001:549 JLINK_WriteReg(R12, 0x00000000)  returns 0x00 (0000ms, 0884ms total)
T22E8 001:549 JLINK_WriteReg(R13 (SP), 0x20000800)  returns 0x00 (0001ms, 0885ms total)
T22E8 001:550 JLINK_WriteReg(R14, 0x20000001)  returns 0x00 (0000ms, 0885ms total)
T22E8 001:550 JLINK_WriteReg(R15 (PC), 0x200000F4)  returns 0x00 (0000ms, 0885ms total)
T22E8 001:550 JLINK_WriteReg(XPSR, 0x01000000)  returns 0x00 (0000ms, 0885ms total)
T22E8 001:550 JLINK_WriteReg(MSP, 0x20000800)  returns 0x00 (0000ms, 0885ms total)
T22E8 001:550 JLINK_WriteReg(PSP, 0x20000800)  returns 0x00 (0000ms, 0885ms total)
T22E8 001:550 JLINK_WriteReg(CFBP, 0x00000000)  returns 0x00 (0000ms, 0885ms total)
T22E8 001:550 JLINK_SetBPEx(Addr = 0x20000000, Type = 0xFFFFFFF2)  returns 0x0000000B (0000ms, 0885ms total)
T22E8 001:550 JLINK_Go() (0002ms, 0887ms total)
T22E8 001:552 JLINK_IsHalted()  returns FALSE (0001ms, 0888ms total)
T22E8 001:557 JLINK_IsHalted()  returns FALSE (0001ms, 0888ms total)
T22E8 001:559 JLINK_IsHalted()  returns FALSE (0001ms, 0888ms total)
T22E8 001:561 JLINK_IsHalted()  returns FALSE (0001ms, 0888ms total)
T22E8 001:563 JLINK_IsHalted()  returns FALSE (0001ms, 0888ms total)
T22E8 001:565 JLINK_IsHalted()  returns FALSE (0001ms, 0888ms total)
T22E8 001:568 JLINK_IsHalted()  returns FALSE (0001ms, 0888ms total)
T22E8 001:570 JLINK_IsHalted()  returns FALSE (0001ms, 0888ms total)
T22E8 001:572 JLINK_IsHalted()  returns FALSE (0001ms, 0888ms total)
T22E8 001:574 JLINK_IsHalted()  returns FALSE (0001ms, 0888ms total)
T22E8 001:576 JLINK_IsHalted()  returns FALSE (0001ms, 0888ms total)
T22E8 001:578 JLINK_IsHalted()  returns FALSE (0001ms, 0888ms total)
T22E8 001:580 JLINK_IsHalted()  returns FALSE (0001ms, 0888ms total)
T22E8 001:582 JLINK_IsHalted()  returns FALSE (0001ms, 0888ms total)
T22E8 001:584 JLINK_IsHalted() -- CPU_ReadMem(2 bytes @ 0x20000000)  returns TRUE (0005ms, 0892ms total)
T22E8 001:589 JLINK_ReadReg(R15 (PC))  returns 0x20000000 (0000ms, 0887ms total)
T22E8 001:589 JLINK_ClrBPEx(BPHandle = 0x0000000B)  returns 0x00 (0000ms, 0887ms total)
T22E8 001:589 JLINK_ReadReg(R0)  returns 0x00000000 (0000ms, 0887ms total)
T22E8 001:590 JLINK_WriteMem(0x20000164, 0x0400 Bytes, ...) - Data: BD FC 00 21 4F F4 00 10 FF F7 B8 FC 49 E0 C5 48 ... -- CPU_WriteMem(1024 bytes @ 0x20000164)  returns 0x400 (0009ms, 0896ms total)
T22E8 001:599 JLINK_WriteReg(R0, 0x08001C00)  returns 0x00 (0000ms, 0896ms total)
T22E8 001:599 JLINK_WriteReg(R1, 0x00000400)  returns 0x00 (0000ms, 0896ms total)
T22E8 001:599 JLINK_WriteReg(R2, 0x20000164)  returns 0x00 (0003ms, 0899ms total)
T22E8 001:602 JLINK_WriteReg(R3, 0x00000000)  returns 0x00 (0000ms, 0899ms total)
T22E8 001:602 JLINK_WriteReg(R4, 0x00000000)  returns 0x00 (0000ms, 0899ms total)
T22E8 001:602 JLINK_WriteReg(R5, 0x00000000)  returns 0x00 (0001ms, 0900ms total)
T22E8 001:603 JLINK_WriteReg(R6, 0x00000000)  returns 0x00 (0000ms, 0900ms total)
T22E8 001:603 JLINK_WriteReg(R7, 0x00000000)  returns 0x00 (0000ms, 0900ms total)
T22E8 001:603 JLINK_WriteReg(R8, 0x00000000)  returns 0x00 (0000ms, 0900ms total)
T22E8 001:603 JLINK_WriteReg(R9, 0x20000160)  returns 0x00 (0000ms, 0900ms total)
T22E8 001:603 JLINK_WriteReg(R10, 0x00000000)  returns 0x00 (0000ms, 0900ms total)
T22E8 001:603 JLINK_WriteReg(R11, 0x00000000)  returns 0x00 (0000ms, 0900ms total)
T22E8 001:603 JLINK_WriteReg(R12, 0x00000000)  returns 0x00 (0000ms, 0900ms total)
T22E8 001:604 JLINK_WriteReg(R13 (SP), 0x20000800)  returns 0x00 (0000ms, 0901ms total)
T22E8 001:604 JLINK_WriteReg(R14, 0x20000001)  returns 0x00 (0000ms, 0901ms total)
T22E8 001:604 JLINK_WriteReg(R15 (PC), 0x200000F4)  returns 0x00 (0000ms, 0901ms total)
T22E8 001:604 JLINK_WriteReg(XPSR, 0x01000000)  returns 0x00 (0000ms, 0901ms total)
T22E8 001:604 JLINK_WriteReg(MSP, 0x20000800)  returns 0x00 (0000ms, 0901ms total)
T22E8 001:604 JLINK_WriteReg(PSP, 0x20000800)  returns 0x00 (0000ms, 0901ms total)
T22E8 001:604 JLINK_WriteReg(CFBP, 0x00000000)  returns 0x00 (0000ms, 0901ms total)
T22E8 001:605 JLINK_SetBPEx(Addr = 0x20000000, Type = 0xFFFFFFF2)  returns 0x0000000C (0000ms, 0902ms total)
T22E8 001:605 JLINK_Go() (0003ms, 0905ms total)
T22E8 001:608 JLINK_IsHalted()  returns FALSE (0001ms, 0906ms total)
T22E8 001:617 JLINK_IsHalted()  returns FALSE (0001ms, 0906ms total)
T22E8 001:619 JLINK_IsHalted()  returns FALSE (0000ms, 0905ms total)
T22E8 001:620 JLINK_IsHalted()  returns FALSE (0000ms, 0905ms total)
T22E8 001:621 JLINK_IsHalted()  returns FALSE (0000ms, 0905ms total)
T22E8 001:622 JLINK_IsHalted()  returns FALSE (0000ms, 0905ms total)
T22E8 001:624 JLINK_IsHalted()  returns FALSE (0004ms, 0909ms total)
T22E8 001:629 JLINK_IsHalted()  returns FALSE (0001ms, 0906ms total)
T22E8 001:631 JLINK_IsHalted()  returns FALSE (0000ms, 0905ms total)
T22E8 001:632 JLINK_IsHalted()  returns FALSE (0000ms, 0905ms total)
T22E8 001:633 JLINK_IsHalted()  returns FALSE (0001ms, 0906ms total)
T22E8 001:635 JLINK_IsHalted()  returns FALSE (0000ms, 0905ms total)
T22E8 001:636 JLINK_IsHalted()  returns FALSE (0000ms, 0905ms total)
T22E8 001:637 JLINK_IsHalted()  returns FALSE (0000ms, 0905ms total)
T22E8 001:638 JLINK_IsHalted() -- CPU_ReadMem(2 bytes @ 0x20000000)  returns TRUE (0005ms, 0910ms total)
T22E8 001:643 JLINK_ReadReg(R15 (PC))  returns 0x20000000 (0000ms, 0905ms total)
T22E8 001:643 JLINK_ClrBPEx(BPHandle = 0x0000000C)  returns 0x00 (0000ms, 0905ms total)
T22E8 001:644 JLINK_ReadReg(R0)  returns 0x00000000 (0000ms, 0905ms total)
T22E8 001:644 JLINK_WriteMem(0x20000164, 0x0400 Bytes, ...) - Data: B8 42 06 D1 4D F6 FF 77 39 40 46 F4 80 57 39 43 ... -- CPU_WriteMem(1024 bytes @ 0x20000164)  returns 0x400 (0009ms, 0914ms total)
T22E8 001:653 JLINK_WriteReg(R0, 0x08002000)  returns 0x00 (0000ms, 0914ms total)
T22E8 001:653 JLINK_WriteReg(R1, 0x00000400)  returns 0x00 (0000ms, 0914ms total)
T22E8 001:653 JLINK_WriteReg(R2, 0x20000164)  returns 0x00 (0000ms, 0914ms total)
T22E8 001:653 JLINK_WriteReg(R3, 0x00000000)  returns 0x00 (0000ms, 0914ms total)
T22E8 001:653 JLINK_WriteReg(R4, 0x00000000)  returns 0x00 (0000ms, 0914ms total)
T22E8 001:653 JLINK_WriteReg(R5, 0x00000000)  returns 0x00 (0000ms, 0914ms total)
T22E8 001:653 JLINK_WriteReg(R6, 0x00000000)  returns 0x00 (0000ms, 0914ms total)
T22E8 001:653 JLINK_WriteReg(R7, 0x00000000)  returns 0x00 (0000ms, 0914ms total)
T22E8 001:653 JLINK_WriteReg(R8, 0x00000000)  returns 0x00 (0000ms, 0914ms total)
T22E8 001:653 JLINK_WriteReg(R9, 0x20000160)  returns 0x00 (0000ms, 0914ms total)
T22E8 001:653 JLINK_WriteReg(R10, 0x00000000)  returns 0x00 (0000ms, 0914ms total)
T22E8 001:653 JLINK_WriteReg(R11, 0x00000000)  returns 0x00 (0001ms, 0915ms total)
T22E8 001:654 JLINK_WriteReg(R12, 0x00000000)  returns 0x00 (0000ms, 0915ms total)
T22E8 001:654 JLINK_WriteReg(R13 (SP), 0x20000800)  returns 0x00 (0000ms, 0915ms total)
T22E8 001:654 JLINK_WriteReg(R14, 0x20000001)  returns 0x00 (0000ms, 0915ms total)
T22E8 001:654 JLINK_WriteReg(R15 (PC), 0x200000F4)  returns 0x00 (0000ms, 0915ms total)
T22E8 001:654 JLINK_WriteReg(XPSR, 0x01000000)  returns 0x00 (0000ms, 0915ms total)
T22E8 001:654 JLINK_WriteReg(MSP, 0x20000800)  returns 0x00 (0000ms, 0915ms total)
T22E8 001:654 JLINK_WriteReg(PSP, 0x20000800)  returns 0x00 (0000ms, 0915ms total)
T22E8 001:654 JLINK_WriteReg(CFBP, 0x00000000)  returns 0x00 (0000ms, 0915ms total)
T22E8 001:654 JLINK_SetBPEx(Addr = 0x20000000, Type = 0xFFFFFFF2)  returns 0x0000000D (0000ms, 0915ms total)
T22E8 001:654 JLINK_Go() (0003ms, 0918ms total)
T22E8 001:657 JLINK_IsHalted()  returns FALSE (0001ms, 0919ms total)
T22E8 001:661 JLINK_IsHalted()  returns FALSE (0001ms, 0919ms total)
T22E8 001:663 JLINK_IsHalted()  returns FALSE (0001ms, 0919ms total)
T22E8 001:665 JLINK_IsHalted()  returns FALSE (0001ms, 0919ms total)
T22E8 001:667 JLINK_IsHalted()  returns FALSE (0001ms, 0919ms total)
T22E8 001:669 JLINK_IsHalted()  returns FALSE (0001ms, 0919ms total)
T22E8 001:671 JLINK_IsHalted()  returns FALSE (0001ms, 0919ms total)
T22E8 001:673 JLINK_IsHalted()  returns FALSE (0001ms, 0919ms total)
T22E8 001:675 JLINK_IsHalted()  returns FALSE (0001ms, 0919ms total)
T22E8 001:677 JLINK_IsHalted()  returns FALSE (0001ms, 0919ms total)
T22E8 001:680 JLINK_IsHalted()  returns FALSE (0001ms, 0919ms total)
T22E8 001:682 JLINK_IsHalted()  returns FALSE (0001ms, 0919ms total)
T22E8 001:684 JLINK_IsHalted()  returns FALSE (0001ms, 0919ms total)
T22E8 001:686 JLINK_IsHalted()  returns FALSE (0001ms, 0919ms total)
T22E8 001:688 JLINK_IsHalted() -- CPU_ReadMem(2 bytes @ 0x20000000)  returns TRUE (0005ms, 0923ms total)
T22E8 001:693 JLINK_ReadReg(R15 (PC))  returns 0x20000000 (0000ms, 0918ms total)
T22E8 001:693 JLINK_ClrBPEx(BPHandle = 0x0000000D)  returns 0x00 (0000ms, 0918ms total)
T22E8 001:693 JLINK_ReadReg(R0)  returns 0x00000000 (0000ms, 0918ms total)
T22E8 001:694 JLINK_WriteMem(0x20000164, 0x0400 Bytes, ...) - Data: 0D 46 16 46 1F 46 60 2D 06 D1 3B 46 01 22 31 46 ... -- CPU_WriteMem(1024 bytes @ 0x20000164)  returns 0x400 (0008ms, 0926ms total)
T22E8 001:702 JLINK_WriteReg(R0, 0x08002400)  returns 0x00 (0001ms, 0927ms total)
T22E8 001:703 JLINK_WriteReg(R1, 0x00000400)  returns 0x00 (0000ms, 0927ms total)
T22E8 001:703 JLINK_WriteReg(R2, 0x20000164)  returns 0x00 (0000ms, 0927ms total)
T22E8 001:703 JLINK_WriteReg(R3, 0x00000000)  returns 0x00 (0000ms, 0927ms total)
T22E8 001:703 JLINK_WriteReg(R4, 0x00000000)  returns 0x00 (0000ms, 0927ms total)
T22E8 001:703 JLINK_WriteReg(R5, 0x00000000)  returns 0x00 (0000ms, 0927ms total)
T22E8 001:703 JLINK_WriteReg(R6, 0x00000000)  returns 0x00 (0000ms, 0927ms total)
T22E8 001:703 JLINK_WriteReg(R7, 0x00000000)  returns 0x00 (0000ms, 0927ms total)
T22E8 001:703 JLINK_WriteReg(R8, 0x00000000)  returns 0x00 (0000ms, 0927ms total)
T22E8 001:703 JLINK_WriteReg(R9, 0x20000160)  returns 0x00 (0000ms, 0927ms total)
T22E8 001:703 JLINK_WriteReg(R10, 0x00000000)  returns 0x00 (0000ms, 0927ms total)
T22E8 001:703 JLINK_WriteReg(R11, 0x00000000)  returns 0x00 (0000ms, 0927ms total)
T22E8 001:703 JLINK_WriteReg(R12, 0x00000000)  returns 0x00 (0000ms, 0927ms total)
T22E8 001:703 JLINK_WriteReg(R13 (SP), 0x20000800)  returns 0x00 (0000ms, 0927ms total)
T22E8 001:703 JLINK_WriteReg(R14, 0x20000001)  returns 0x00 (0000ms, 0927ms total)
T22E8 001:703 JLINK_WriteReg(R15 (PC), 0x200000F4)  returns 0x00 (0000ms, 0927ms total)
T22E8 001:703 JLINK_WriteReg(XPSR, 0x01000000)  returns 0x00 (0001ms, 0928ms total)
T22E8 001:704 JLINK_WriteReg(MSP, 0x20000800)  returns 0x00 (0000ms, 0928ms total)
T22E8 001:704 JLINK_WriteReg(PSP, 0x20000800)  returns 0x00 (0000ms, 0928ms total)
T22E8 001:704 JLINK_WriteReg(CFBP, 0x00000000)  returns 0x00 (0000ms, 0928ms total)
T22E8 001:704 JLINK_SetBPEx(Addr = 0x20000000, Type = 0xFFFFFFF2)  returns 0x0000000E (0000ms, 0928ms total)
T22E8 001:704 JLINK_Go() (0002ms, 0930ms total)
T22E8 001:706 JLINK_IsHalted()  returns FALSE (0001ms, 0931ms total)
T22E8 001:708 JLINK_IsHalted()  returns FALSE (0000ms, 0930ms total)
T22E8 001:709 JLINK_IsHalted()  returns FALSE (0000ms, 0930ms total)
T22E8 001:710 JLINK_IsHalted()  returns FALSE (0000ms, 0930ms total)
T22E8 001:711 JLINK_IsHalted()  returns FALSE (0001ms, 0931ms total)
T22E8 001:714 JLINK_IsHalted()  returns FALSE (0000ms, 0930ms total)
T22E8 001:715 JLINK_IsHalted()  returns FALSE (0000ms, 0930ms total)
T22E8 001:716 JLINK_IsHalted()  returns FALSE (0000ms, 0930ms total)
T22E8 001:717 JLINK_IsHalted()  returns FALSE (0000ms, 0930ms total)
T22E8 001:718 JLINK_IsHalted()  returns FALSE (0000ms, 0930ms total)
T22E8 001:719 JLINK_IsHalted()  returns FALSE (0000ms, 0930ms total)
T22E8 001:720 JLINK_IsHalted()  returns FALSE (0000ms, 0930ms total)
T22E8 001:721 JLINK_IsHalted()  returns FALSE (0000ms, 0930ms total)
T22E8 001:722 JLINK_IsHalted()  returns FALSE (0000ms, 0930ms total)
T22E8 001:723 JLINK_IsHalted()  returns FALSE (0001ms, 0931ms total)
T22E8 001:725 JLINK_IsHalted()  returns FALSE (0000ms, 0930ms total)
T22E8 001:726 JLINK_IsHalted()  returns FALSE (0000ms, 0930ms total)
T22E8 001:727 JLINK_IsHalted()  returns FALSE (0000ms, 0930ms total)
T22E8 001:728 JLINK_IsHalted()  returns FALSE (0000ms, 0930ms total)
T22E8 001:729 JLINK_IsHalted()  returns FALSE (0000ms, 0930ms total)
T22E8 001:730 JLINK_IsHalted()  returns FALSE (0000ms, 0930ms total)
T22E8 001:731 JLINK_IsHalted()  returns FALSE (0000ms, 0930ms total)
T22E8 001:732 JLINK_IsHalted()  returns FALSE (0000ms, 0930ms total)
T22E8 001:733 JLINK_IsHalted()  returns FALSE (0000ms, 0930ms total)
T22E8 001:734 JLINK_IsHalted()  returns FALSE (0000ms, 0930ms total)
T22E8 001:735 JLINK_IsHalted()  returns FALSE (0000ms, 0930ms total)
T22E8 001:736 JLINK_IsHalted()  returns FALSE (0000ms, 0930ms total)
T22E8 001:737 JLINK_IsHalted() -- CPU_ReadMem(2 bytes @ 0x20000000)  returns TRUE (0005ms, 0935ms total)
T22E8 001:742 JLINK_ReadReg(R15 (PC))  returns 0x20000000 (0000ms, 0930ms total)
T22E8 001:742 JLINK_ClrBPEx(BPHandle = 0x0000000E)  returns 0x00 (0000ms, 0930ms total)
T22E8 001:742 JLINK_ReadReg(R0)  returns 0x00000000 (0000ms, 0930ms total)
T22E8 001:743 JLINK_WriteMem(0x20000164, 0x0400 Bytes, ...) - Data: 02 88 4F F6 FD 73 1A 40 02 80 70 47 21 B1 02 88 ... -- CPU_WriteMem(1024 bytes @ 0x20000164)  returns 0x400 (0008ms, 0938ms total)
T22E8 001:751 JLINK_WriteReg(R0, 0x08002800)  returns 0x00 (0000ms, 0938ms total)
T22E8 001:751 JLINK_WriteReg(R1, 0x00000400)  returns 0x00 (0000ms, 0938ms total)
T22E8 001:751 JLINK_WriteReg(R2, 0x20000164)  returns 0x00 (0000ms, 0938ms total)
